
T0DC8 001:965 SEGGER J-Link V4.15n (beta) Log File (0001ms, 1964ms total)
T0DC8 001:965 DLL Compiled: Jun 18 2010 19:55:09 (0001ms, 1964ms total)
T0DC8 001:965 Logging started @ 2011-04-09 20:28 (0001ms, 1964ms total)
T0DC8 001:966 JLINK_SetWarnOutHandler(...) (0000ms, 1965ms total)
T0DC8 001:966 JLINK_OpenEx(...)
Firmware: J-Link ARM V8 compiled May 20 2010 17:07:46
Hardware: V8.00
S/N: 20100214
Feature(s): RDI,FlashDL,FlashBP,JFlash,GDBFull  returns O.K. (0134ms, 1965ms total)
T0DC8 002:100 JLINK_SetErrorOutHandler(...) (0000ms, 2099ms total)
T0DC8 002:100 JLINK_ExecCommand("ProjectFile = "D:\StellarisWare(eklm3s3748)\project\LM3S5956\usb_dev_mouse (°´¼ü)\JLinkSettings.ini"", ...)  returns 0x00 (0001ms, 2099ms total)
T0DC8 002:105 JLINK_ExecCommand("DisableConnectionTimeout", ...)  returns 0x00 (0000ms, 2100ms total)
T0DC8 002:105 JLINK_TIF_Select(JLINKARM_TIF_JTAG)  returns 0x00 (0000ms, 2100ms total)
T0DC8 002:105 JLINK_SetSpeed(2000) (0000ms, 2100ms total)
T0DC8 002:105 JLINK_GetHardwareVersion()  returns 0x13880 (0000ms, 2100ms total)
T0DC8 002:105 JLINK_GetDLLVersion()  returns 41514 (0000ms, 2100ms total)
T0DC8 002:105 JLINK_GetFirmwareString(...) (0000ms, 2100ms total)
T0DC8 002:112 JLINK_GetDLLVersion()  returns 41514 (0000ms, 2100ms total)
T0DC8 002:112 JLINK_GetCompileDateTime() (0000ms, 2100ms total)
T0DC8 002:113 JLINK_GetFirmwareString(...) (0000ms, 2100ms total)
T0DC8 002:114 JLINK_GetHardwareVersion()  returns 0x13880 (0000ms, 2100ms total)
T0DC8 002:119 JLINK_Reset() >0x2F8 JTAG>TotalIRLen = 4, IRPrint = 0x01 >0x30 JTAG> >0x210 JTAG> >0x100 JTAG> >0xC8 JTAG> >0x170 JTAG> >0x30 JTAG> >0x100 JTAG> >0xC8 JTAG> >0x2C8 JTAG> >0x2C8 JTAG> >0x170 JTAG> >0x170 JTAG>Found Cortex-M3 r2p0, Little endian. >0xC8 JTAG> >0x218 JTAG> >0x170 JTAG> >0x218 JTAG> >0x170 JTAG>TPIU fitted. >0x170 JTAG> >0x170 JTAG>  FPUnit: 6 code (BP) slots and 2 literal slots >0x170 JTAG> >0x220 JTAG> >0x218 JTAG> >0x250 JTAG> >0x170 JTAG>
SYSRESETREQ has confused core. Trying to reconnect and use VECTRESET. >0x30 JTAG> >0x100 JTAG> >0xC8 JTAG> >0x2C8 JTAG> >0x2C8 JTAG> >0x170 JTAG> >0x170 JTAG>Found Cortex-M3 r2p0, Little endian. >0xC8 JTAG> >0x218 JTAG> >0x170 JTAG> >0x218 JTAG> >0x170 JTAG>TPIU fitted. >0x170 JTAG> >0x170 JTAG>  FPUnit: 6 code (BP) slots and 2 literal slots >0x170 JTAG> >0x220 JTAG> >0x218 JTAG> >0x250 JTAG> >0x170 JTAG> >0x170 JTAG> >0x218 JTAG> >0x218 JTAG> >0x170 JTAG> >0x170 JTAG> >0x1598 JTAG> >0x218 JTAG>
 >0x170 JTAG> >0x1598 JTAG> >0x170 JTAG> -- CPU_WriteMem(4 bytes @ 0xE000EDFC) -- CPU_WriteMem(4 bytes @ 0xE0001028) -- CPU_WriteMem(4 bytes @ 0xE0001038) -- CPU_WriteMem(4 bytes @ 0xE0001048) -- CPU_WriteMem(4 bytes @ 0xE0001058) (0094ms, 2100ms total)
T0DC8 002:213 JLINK_GetIdData(...) ScanLen=4 NumDevices=1 aId[0]=0x4BA00477 aIrRead[0]=0 aScanLen[0]=0 aScanRead[0]=0 (0000ms, 2194ms total)
T0DC8 002:213 JLINK_JTAG_GetDeviceID(DeviceIndex = 0)  returns 0x4BA00477 (0001ms, 2194ms total)
T0DC8 002:214 JLINK_JTAG_GetDeviceInfo(DeviceIndex = 0)  returns 0x00 (0000ms, 2195ms total)
T0DC8 002:214 JLINK_GetDebugInfo(0x100) -- Value=0xE00FF003  returns 0x00 (0000ms, 2195ms total)
T0DC8 002:215 JLINK_ReadMem (0xE00FF000, 0x0018 Bytes, ...) -- CPU_ReadMem(24 bytes @ 0xE00FF000) -- Data:  03 F0 F0 FF 03 20 F0 FF 03 30 F0 FF 03 10 F0 FF ...  returns 0x00 (0001ms, 2195ms total)
T0DC8 002:216 JLINK_ReadMemU32(0xE000ED00, 0x0001 Items, ...) -- CPU_ReadMem(4 bytes @ 0xE000ED00) -- Data:  30 C2 2F 41  returns 0x01 (0001ms, 2196ms total)
T0DC8 002:218 JLINK_Halt()  returns 0x00 (0000ms, 2197ms total)
T0DC8 002:218 JLINK_IsHalted()  returns TRUE (0000ms, 2197ms total)
T0DC8 002:218 JLINK_ReadMemU32(0xE000EDF0, 0x0001 Items, ...) -- CPU_ReadMem(4 bytes @ 0xE000EDF0) -- Data:  03 00 03 00  returns 0x01 (0001ms, 2197ms total)
T0DC8 002:219 JLINK_WriteU32(0xE000EDF0, 0xA05F0003) -- CPU_WriteMem(4 bytes @ 0xE000EDF0)  returns 0x00 (0001ms, 2198ms total)
T0DC8 002:220 JLINK_WriteU32(0xE000EDFC, 0x01000000) -- CPU_WriteMem(4 bytes @ 0xE000EDFC)  returns 0x00 (0001ms, 2199ms total)
T0DC8 002:221 JLINK_ReadMemU32(0xE0002000, 0x0001 Items, ...) -- CPU_ReadMem(4 bytes @ 0xE0002000) -- Data:  60 02 00 00  returns 0x01 (0001ms, 2200ms total)
T0DC8 002:222 JLINK_ReadMemU32(0xE0001000, 0x0001 Items, ...) -- CPU_ReadMem(4 bytes @ 0xE0001000) -- Data:  00 00 00 40  returns 0x01 (0002ms, 2201ms total)
T0DC8 002:228 JLINK_ExecCommand("Device = LM3S3748", ...)
                JLINK_ExecCommand("map ram 0x20000000 - 0x2000FFFF", ...)  returns 0x00 (0000ms, 0000ms total)
                JLINK_AddMirrorAreaEx(Addr = 0x00000000, Size = 0x00000000) (0000ms, 0000ms total)
                returns 0x00 (0000ms, 2203ms total)
T0DC8 002:228 JLINK_GetHWStatus(...)  returns 0x00 (0001ms, 2203ms total)
T0DC8 002:232 JLINK_GetNumBPUnits(Type = 0xFFFFFF00) >0x2F8 JTAG>TotalIRLen = 4, IRPrint = 0x01 >0x30 JTAG> >0x210 JTAG> >0x100 JTAG> >0xC8 JTAG> >0x170 JTAG> >0x30 JTAG> >0x100 JTAG> >0xC8 JTAG> >0x2C8 JTAG> >0x2C8 JTAG> >0x170 JTAG> >0x170 JTAG>Found Cortex-M3 r2p0, Little endian. >0xC8 JTAG> >0x218 JTAG> >0x170 JTAG> >0x170 JTAG>TPIU fitted. >0x170 JTAG> >0x170 JTAG>  FPUnit: 6 code (BP) slots and 2 literal slots >0x170 JTAG>  returns 0x06 (0033ms, 2204ms total)
T0DC8 002:265 JLINK_GetNumBPUnits(Type = 0xF0)  returns 0x800 (0000ms, 2237ms total)
T0DC8 002:265 JLINK_GetNumWPUnits()  returns 0x04 (0000ms, 2237ms total)
T0DC8 002:269 JLINK_GetSpeed()  returns 0x7D0 (0000ms, 2237ms total)
T0DC8 002:271 JLINK_ReadMemU32(0xE000E004, 0x0001 Items, ...) -- CPU_ReadMem(4 bytes @ 0xE000E004) -- Data:  01 00 00 00  returns 0x01 (0001ms, 2237ms total)
T0DC8 002:272 JLINK_WriteMem(0xE0001000, 0x001C Bytes, ...) -- Data:  01 00 00 00 00 00 00 00 00 00 00 00 00 00 00 00 ... -- CPU_WriteMem(28 bytes @ 0xE0001000)  returns 0x1C (0001ms, 2238ms total)
T0DC8 002:273 JLINK_ReadMem (0xE0001000, 0x001C Bytes, ...) -- CPU_ReadMem(28 bytes @ 0xE0001000) -- Data:  01 00 00 40 00 00 00 00 00 00 00 00 00 00 00 00 ...  returns 0x00 (0001ms, 2239ms total)
T0DC8 002:274 JLINK_ReadMemU32(0x400FE000, 0x0001 Items, ...) -- CPU_ReadMem(4 bytes @ 0x400FE000) -- Data:  00 02 03 10  returns 0x01 (0001ms, 2240ms total)
T0DC8 002:275 JLINK_Halt()  returns 0x00 (0001ms, 2241ms total)
T0DC8 002:276 JLINK_IsHalted()  returns TRUE (0000ms, 2242ms total)
T0DC8 002:277 JLINK_WriteMem(0x20000000, 0x00D8 Bytes, ...) -- Data:  00 BE 0A E0 0D 78 2D 06 68 40 08 24 40 00 00 D3 ... -- CPU_WriteMem(216 bytes @ 0x20000000)  returns 0xD8 (0003ms, 2242ms total)
T0DC8 002:280 JLINK_WriteReg(R0, 0x00000000)  returns 0x00 (0000ms, 2245ms total)
T0DC8 002:280 JLINK_WriteReg(R1, 0x007A1200)  returns 0x00 (0000ms, 2245ms total)
T0DC8 002:280 JLINK_WriteReg(R2, 0x00000001)  returns 0x00 (0000ms, 2245ms total)
T0DC8 002:280 JLINK_WriteReg(R3, 0x00000000)  returns 0x00 (0000ms, 2245ms total)
T0DC8 002:280 JLINK_WriteReg(R4, 0x00000000)  returns 0x00 (0000ms, 2245ms total)
T0DC8 002:280 JLINK_WriteReg(R5, 0x00000000)  returns 0x00 (0000ms, 2245ms total)
T0DC8 002:280 JLINK_WriteReg(R6, 0x00000000)  returns 0x00 (0000ms, 2245ms total)
T0DC8 002:280 JLINK_WriteReg(R7, 0x00000000)  returns 0x00 (0000ms, 2245ms total)
T0DC8 002:280 JLINK_WriteReg(R8, 0x00000000)  returns 0x00 (0000ms, 2245ms total)
T0DC8 002:280 JLINK_WriteReg(R9, 0x200000D4)  returns 0x00 (0000ms, 2245ms total)
T0DC8 002:280 JLINK_WriteReg(R10, 0x00000000)  returns 0x00 (0000ms, 2245ms total)
T0DC8 002:280 JLINK_WriteReg(R11, 0x00000000)  returns 0x00 (0000ms, 2245ms total)
T0DC8 002:280 JLINK_WriteReg(R12, 0x00000000)  returns 0x00 (0000ms, 2245ms total)
T0DC8 002:280 JLINK_WriteReg(R13, 0x20000800)  returns 0x00 (0000ms, 2245ms total)
T0DC8 002:280 JLINK_WriteReg(R14, 0x20000001)  returns 0x00 (0000ms, 2245ms total)
T0DC8 002:280 JLINK_WriteReg(R15, 0x20000038)  returns 0x00 (0000ms, 2245ms total)
T0DC8 002:280 JLINK_WriteReg(XPSR, 0x01000000)  returns 0x00 (0000ms, 2245ms total)
T0DC8 002:280 JLINK_WriteReg(MSP, 0x20000800)  returns 0x00 (0000ms, 2245ms total)
T0DC8 002:280 JLINK_WriteReg(PSP, 0x20000800)  returns 0x00 (0000ms, 2245ms total)
T0DC8 002:280 JLINK_WriteReg(CFBP, 0x00000000)  returns 0x00 (0000ms, 2245ms total)
T0DC8 002:280 JLINK_SetBPEx(Addr = 0x20000000, Type = 0xFFFFFFF2) -- CPU_ReadMem(2 bytes @ 0x20000000)  returns 0x00000001 (0002ms, 2245ms total)
T0DC8 002:282 JLINK_Go() -- CPU_WriteMem(2 bytes @ 0x20000000) -- CPU_WriteMem(4 bytes @ 0xE0002008) -- CPU_WriteMem(4 bytes @ 0xE000200C) -- CPU_WriteMem(4 bytes @ 0xE0002010) -- CPU_WriteMem(4 bytes @ 0xE0002014) -- CPU_WriteMem(4 bytes @ 0xE0002018) -- CPU_WriteMem(4 bytes @ 0xE000201C) >0x2D0 JTAG> >0x1E8 JTAG> >0x1E8 JTAG> >0x1E8 JTAG> >0x1E8 JTAG> >0x1E8 JTAG> >0x218 JTAG> >0x218 JTAG> (0017ms, 2247ms total)
T0DC8 002:299 JLINK_IsHalted() >0x170 JTAG> >0x1598 JTAG> -- CPU_ReadMem(2 bytes @ 0x20000000)  returns TRUE (0008ms, 2264ms total)
T0DC8 002:307 JLINK_ReadReg(R15)  returns 0x20000000 (0000ms, 2264ms total)
T0DC8 002:307 JLINK_ClrBPEx(BPHandle = 0x00000001)  returns 0x00 (0000ms, 2264ms total)
T0DC8 002:307 JLINK_ReadReg(R0)  returns 0x00000000 (0000ms, 2264ms total)
T0DC8 002:307 JLINK_WriteReg(R0, 0x00000000)  returns 0x00 (0000ms, 2264ms total)
T0DC8 002:307 JLINK_WriteReg(R1, 0x00000400)  returns 0x00 (0000ms, 2264ms total)
T0DC8 002:307 JLINK_WriteReg(R2, 0x000000FF)  returns 0x00 (0000ms, 2264ms total)
T0DC8 002:307 JLINK_WriteReg(R3, 0x00000000)  returns 0x00 (0000ms, 2264ms total)
T0DC8 002:307 JLINK_WriteReg(R4, 0x00000000)  returns 0x00 (0000ms, 2264ms total)
T0DC8 002:307 JLINK_WriteReg(R5, 0x00000000)  returns 0x00 (0000ms, 2264ms total)
T0DC8 002:307 JLINK_WriteReg(R6, 0x00000000)  returns 0x00 (0000ms, 2264ms total)
T0DC8 002:307 JLINK_WriteReg(R7, 0x00000000)  returns 0x00 (0000ms, 2264ms total)
T0DC8 002:307 JLINK_WriteReg(R8, 0x00000000)  returns 0x00 (0000ms, 2264ms total)
T0DC8 002:307 JLINK_WriteReg(R9, 0x200000D4)  returns 0x00 (0000ms, 2264ms total)
T0DC8 002:307 JLINK_WriteReg(R10, 0x00000000)  returns 0x00 (0000ms, 2264ms total)
T0DC8 002:307 JLINK_WriteReg(R11, 0x00000000)  returns 0x00 (0000ms, 2264ms total)
T0DC8 002:307 JLINK_WriteReg(R12, 0x00000000)  returns 0x00 (0000ms, 2264ms total)
T0DC8 002:308 JLINK_WriteReg(R13, 0x20000800)  returns 0x00 (0000ms, 2265ms total)
T0DC8 002:308 JLINK_WriteReg(R14, 0x20000001)  returns 0x00 (0000ms, 2265ms total)
T0DC8 002:308 JLINK_WriteReg(R15, 0x20000020)  returns 0x00 (0000ms, 2265ms total)
T0DC8 002:308 JLINK_WriteReg(XPSR, 0x01000000)  returns 0x00 (0000ms, 2265ms total)
T0DC8 002:308 JLINK_WriteReg(MSP, 0x20000800)  returns 0x00 (0000ms, 2265ms total)
T0DC8 002:308 JLINK_WriteReg(PSP, 0x20000800)  returns 0x00 (0000ms, 2265ms total)
T0DC8 002:308 JLINK_WriteReg(CFBP, 0x00000000)  returns 0x00 (0000ms, 2265ms total)
T0DC8 002:308 JLINK_SetBPEx(Addr = 0x20000000, Type = 0xFFFFFFF2)  returns 0x00000002 (0000ms, 2265ms total)
T0DC8 002:308 JLINK_Go() -- CPU_WriteMem(4 bytes @ 0xE0002008) -- CPU_WriteMem(4 bytes @ 0xE000200C) -- CPU_WriteMem(4 bytes @ 0xE0002010) -- CPU_WriteMem(4 bytes @ 0xE0002014) -- CPU_WriteMem(4 bytes @ 0xE0002018) -- CPU_WriteMem(4 bytes @ 0xE000201C) >0x2C8 JTAG> >0x1E8 JTAG> >0x1E8 JTAG> >0x1E8 JTAG> >0x218 JTAG> >0x218 JTAG> (0014ms, 2265ms total)
T0DC8 002:322 JLINK_IsHalted() >0x170 JTAG> >0x1598 JTAG> -- CPU_ReadMem(2 bytes @ 0x20000000)  returns TRUE (0007ms, 2279ms total)
T0DC8 002:329 JLINK_ReadReg(R15)  returns 0x20000000 (0000ms, 2279ms total)
T0DC8 002:329 JLINK_ClrBPEx(BPHandle = 0x00000002)  returns 0x00 (0000ms, 2279ms total)
T0DC8 002:329 JLINK_ReadReg(R0)  returns 0x00000001 (0000ms, 2279ms total)
T0DC8 002:329 JLINK_WriteReg(R0, 0x00000000)  returns 0x00 (0000ms, 2279ms total)
T0DC8 002:329 JLINK_WriteReg(R1, 0x00000400)  returns 0x00 (0000ms, 2279ms total)
T0DC8 002:329 JLINK_WriteReg(R2, 0x000000FF)  returns 0x00 (0000ms, 2279ms total)
T0DC8 002:329 JLINK_WriteReg(R3, 0x00000000)  returns 0x00 (0000ms, 2279ms total)
T0DC8 002:329 JLINK_WriteReg(R4, 0x00000000)  returns 0x00 (0000ms, 2279ms total)
T0DC8 002:329 JLINK_WriteReg(R5, 0x00000000)  returns 0x00 (0000ms, 2279ms total)
T0DC8 002:329 JLINK_WriteReg(R6, 0x00000000)  returns 0x00 (0000ms, 2279ms total)
T0DC8 002:329 JLINK_WriteReg(R7, 0x00000000)  returns 0x00 (0000ms, 2279ms total)
T0DC8 002:329 JLINK_WriteReg(R8, 0x00000000)  returns 0x00 (0000ms, 2279ms total)
T0DC8 002:330 JLINK_WriteReg(R9, 0x200000D4)  returns 0x00 (0000ms, 2280ms total)
T0DC8 002:330 JLINK_WriteReg(R10, 0x00000000)  returns 0x00 (0000ms, 2280ms total)
T0DC8 002:330 JLINK_WriteReg(R11, 0x00000000)  returns 0x00 (0000ms, 2280ms total)
T0DC8 002:330 JLINK_WriteReg(R12, 0x00000000)  returns 0x00 (0000ms, 2280ms total)
T0DC8 002:330 JLINK_WriteReg(R13, 0x20000800)  returns 0x00 (0000ms, 2280ms total)
T0DC8 002:330 JLINK_WriteReg(R14, 0x20000001)  returns 0x00 (0000ms, 2280ms total)
T0DC8 002:330 JLINK_WriteReg(R15, 0x20000070)  returns 0x00 (0000ms, 2280ms total)
T0DC8 002:330 JLINK_WriteReg(XPSR, 0x01000000)  returns 0x00 (0000ms, 2280ms total)
T0DC8 002:330 JLINK_WriteReg(MSP, 0x20000800)  returns 0x00 (0000ms, 2280ms total)
T0DC8 002:330 JLINK_WriteReg(PSP, 0x20000800)  returns 0x00 (0000ms, 2280ms total)
T0DC8 002:330 JLINK_WriteReg(CFBP, 0x00000000)  returns 0x00 (0000ms, 2280ms total)
T0DC8 002:330 JLINK_SetBPEx(Addr = 0x20000000, Type = 0xFFFFFFF2)  returns 0x00000003 (0000ms, 2280ms total)
T0DC8 002:330 JLINK_Go() -- CPU_WriteMem(4 bytes @ 0xE0002008) -- CPU_WriteMem(4 bytes @ 0xE000200C) -- CPU_WriteMem(4 bytes @ 0xE0002010) -- CPU_WriteMem(4 bytes @ 0xE0002014) -- CPU_WriteMem(4 bytes @ 0xE0002018) -- CPU_WriteMem(4 bytes @ 0xE000201C) >0x2C8 JTAG> >0x1E8 JTAG> >0x1E8 JTAG> >0x1E8 JTAG> >0x218 JTAG> >0x218 JTAG> (0013ms, 2280ms total)
T0DC8 002:343 JLINK_IsHalted() >0x170 JTAG>  returns FALSE (0001ms, 2293ms total)
T0DC8 002:394 JLINK_IsHalted() >0x170 JTAG> >0x1598 JTAG> -- CPU_ReadMem(2 bytes @ 0x20000000)  returns TRUE (0006ms, 2293ms total)
T0DC8 002:400 JLINK_ReadReg(R15)  returns 0x20000000 (0001ms, 2293ms total)
T0DC8 002:401 JLINK_ClrBPEx(BPHandle = 0x00000003)  returns 0x00 (0000ms, 2294ms total)
T0DC8 002:401 JLINK_ReadReg(R0)  returns 0x00000000 (0000ms, 2294ms total)
T0DC8 002:401 JLINK_WriteReg(R0, 0x00000400)  returns 0x00 (0000ms, 2294ms total)
T0DC8 002:401 JLINK_WriteReg(R1, 0x00000400)  returns 0x00 (0000ms, 2294ms total)
T0DC8 002:401 JLINK_WriteReg(R2, 0x000000FF)  returns 0x00 (0000ms, 2294ms total)
T0DC8 002:401 JLINK_WriteReg(R3, 0x00000000)  returns 0x00 (0000ms, 2294ms total)
T0DC8 002:401 JLINK_WriteReg(R4, 0x00000000)  returns 0x00 (0000ms, 2294ms total)
T0DC8 002:401 JLINK_WriteReg(R5, 0x00000000)  returns 0x00 (0000ms, 2294ms total)
T0DC8 002:401 JLINK_WriteReg(R6, 0x00000000)  returns 0x00 (0000ms, 2294ms total)
T0DC8 002:401 JLINK_WriteReg(R7, 0x00000000)  returns 0x00 (0000ms, 2294ms total)
T0DC8 002:401 JLINK_WriteReg(R8, 0x00000000)  returns 0x00 (0000ms, 2294ms total)
T0DC8 002:401 JLINK_WriteReg(R9, 0x200000D4)  returns 0x00 (0000ms, 2294ms total)
T0DC8 002:401 JLINK_WriteReg(R10, 0x00000000)  returns 0x00 (0000ms, 2294ms total)
T0DC8 002:401 JLINK_WriteReg(R11, 0x00000000)  returns 0x00 (0000ms, 2294ms total)
T0DC8 002:401 JLINK_WriteReg(R12, 0x00000000)  returns 0x00 (0000ms, 2294ms total)
T0DC8 002:401 JLINK_WriteReg(R13, 0x20000800)  returns 0x00 (0000ms, 2294ms total)
T0DC8 002:401 JLINK_WriteReg(R14, 0x20000001)  returns 0x00 (0000ms, 2294ms total)
T0DC8 002:401 JLINK_WriteReg(R15, 0x20000020)  returns 0x00 (0000ms, 2294ms total)
T0DC8 002:401 JLINK_WriteReg(XPSR, 0x01000000)  returns 0x00 (0000ms, 2294ms total)
T0DC8 002:401 JLINK_WriteReg(MSP, 0x20000800)  returns 0x00 (0000ms, 2294ms total)
T0DC8 002:401 JLINK_WriteReg(PSP, 0x20000800)  returns 0x00 (0000ms, 2294ms total)
T0DC8 002:401 JLINK_WriteReg(CFBP, 0x00000000)  returns 0x00 (0000ms, 2294ms total)
T0DC8 002:401 JLINK_SetBPEx(Addr = 0x20000000, Type = 0xFFFFFFF2)  returns 0x00000004 (0001ms, 2294ms total)
T0DC8 002:402 JLINK_Go() -- CPU_WriteMem(4 bytes @ 0xE0002008) -- CPU_WriteMem(4 bytes @ 0xE000200C) -- CPU_WriteMem(4 bytes @ 0xE0002010) -- CPU_WriteMem(4 bytes @ 0xE0002014) -- CPU_WriteMem(4 bytes @ 0xE0002018) -- CPU_WriteMem(4 bytes @ 0xE000201C) >0x2C8 JTAG> >0x1E8 JTAG> >0x1E8 JTAG> >0x1E8 JTAG> >0x1E8 JTAG> >0x218 JTAG> >0x218 JTAG> (0015ms, 2295ms total)
T0DC8 002:417 JLINK_IsHalted() >0x170 JTAG> >0x1598 JTAG> -- CPU_ReadMem(2 bytes @ 0x20000000)  returns TRUE (0007ms, 2310ms total)
T0DC8 002:424 JLINK_ReadReg(R15)  returns 0x20000000 (0000ms, 2310ms total)
T0DC8 002:424 JLINK_ClrBPEx(BPHandle = 0x00000004)  returns 0x00 (0000ms, 2310ms total)
T0DC8 002:424 JLINK_ReadReg(R0)  returns 0x00000001 (0000ms, 2310ms total)
T0DC8 002:424 JLINK_WriteReg(R0, 0x00000400)  returns 0x00 (0000ms, 2310ms total)
T0DC8 002:424 JLINK_WriteReg(R1, 0x00000400)  returns 0x00 (0000ms, 2310ms total)
T0DC8 002:424 JLINK_WriteReg(R2, 0x000000FF)  returns 0x00 (0000ms, 2310ms total)
T0DC8 002:424 JLINK_WriteReg(R3, 0x00000000)  returns 0x00 (0000ms, 2310ms total)
T0DC8 002:424 JLINK_WriteReg(R4, 0x00000000)  returns 0x00 (0000ms, 2310ms total)
T0DC8 002:424 JLINK_WriteReg(R5, 0x00000000)  returns 0x00 (0000ms, 2310ms total)
T0DC8 002:424 JLINK_WriteReg(R6, 0x00000000)  returns 0x00 (0000ms, 2310ms total)
T0DC8 002:424 JLINK_WriteReg(R7, 0x00000000)  returns 0x00 (0001ms, 2310ms total)
T0DC8 002:425 JLINK_WriteReg(R8, 0x00000000)  returns 0x00 (0000ms, 2311ms total)
T0DC8 002:425 JLINK_WriteReg(R9, 0x200000D4)  returns 0x00 (0000ms, 2311ms total)
T0DC8 002:425 JLINK_WriteReg(R10, 0x00000000)  returns 0x00 (0000ms, 2311ms total)
T0DC8 002:425 JLINK_WriteReg(R11, 0x00000000)  returns 0x00 (0000ms, 2311ms total)
T0DC8 002:425 JLINK_WriteReg(R12, 0x00000000)  returns 0x00 (0000ms, 2311ms total)
T0DC8 002:425 JLINK_WriteReg(R13, 0x20000800)  returns 0x00 (0000ms, 2311ms total)
T0DC8 002:425 JLINK_WriteReg(R14, 0x20000001)  returns 0x00 (0000ms, 2311ms total)
T0DC8 002:425 JLINK_WriteReg(R15, 0x20000070)  returns 0x00 (0000ms, 2311ms total)
T0DC8 002:425 JLINK_WriteReg(XPSR, 0x01000000)  returns 0x00 (0000ms, 2311ms total)
T0DC8 002:425 JLINK_WriteReg(MSP, 0x20000800)  returns 0x00 (0000ms, 2311ms total)
T0DC8 002:425 JLINK_WriteReg(PSP, 0x20000800)  returns 0x00 (0000ms, 2311ms total)
T0DC8 002:425 JLINK_WriteReg(CFBP, 0x00000000)  returns 0x00 (0000ms, 2311ms total)
T0DC8 002:425 JLINK_SetBPEx(Addr = 0x20000000, Type = 0xFFFFFFF2)  returns 0x00000005 (0000ms, 2311ms total)
T0DC8 002:425 JLINK_Go() -- CPU_WriteMem(4 bytes @ 0xE0002008) -- CPU_WriteMem(4 bytes @ 0xE000200C) -- CPU_WriteMem(4 bytes @ 0xE0002010) -- CPU_WriteMem(4 bytes @ 0xE0002014) -- CPU_WriteMem(4 bytes @ 0xE0002018) -- CPU_WriteMem(4 bytes @ 0xE000201C) >0x2C8 JTAG> >0x1E8 JTAG> >0x1E8 JTAG> >0x1E8 JTAG> >0x218 JTAG> >0x218 JTAG> (0013ms, 2311ms total)
T0DC8 002:438 JLINK_IsHalted() >0x170 JTAG>  returns FALSE (0001ms, 2324ms total)
T0DC8 002:489 JLINK_IsHalted() >0x170 JTAG> >0x1598 JTAG> -- CPU_ReadMem(2 bytes @ 0x20000000)  returns TRUE (0007ms, 2324ms total)
T0DC8 002:496 JLINK_ReadReg(R15)  returns 0x20000000 (0000ms, 2324ms total)
T0DC8 002:496 JLINK_ClrBPEx(BPHandle = 0x00000005)  returns 0x00 (0000ms, 2324ms total)
T0DC8 002:496 JLINK_ReadReg(R0)  returns 0x00000000 (0000ms, 2324ms total)
T0DC8 002:497 JLINK_WriteReg(R0, 0x00000800)  returns 0x00 (0000ms, 2324ms total)
T0DC8 002:497 JLINK_WriteReg(R1, 0x00000400)  returns 0x00 (0000ms, 2324ms total)
T0DC8 002:497 JLINK_WriteReg(R2, 0x000000FF)  returns 0x00 (0000ms, 2324ms total)
T0DC8 002:497 JLINK_WriteReg(R3, 0x00000000)  returns 0x00 (0000ms, 2324ms total)
T0DC8 002:497 JLINK_WriteReg(R4, 0x00000000)  returns 0x00 (0000ms, 2324ms total)
T0DC8 002:497 JLINK_WriteReg(R5, 0x00000000)  returns 0x00 (0000ms, 2324ms total)
T0DC8 002:497 JLINK_WriteReg(R6, 0x00000000)  returns 0x00 (0000ms, 2324ms total)
T0DC8 002:497 JLINK_WriteReg(R7, 0x00000000)  returns 0x00 (0000ms, 2324ms total)
T0DC8 002:497 JLINK_WriteReg(R8, 0x00000000)  returns 0x00 (0000ms, 2324ms total)
T0DC8 002:497 JLINK_WriteReg(R9, 0x200000D4)  returns 0x00 (0000ms, 2324ms total)
T0DC8 002:497 JLINK_WriteReg(R10, 0x00000000)  returns 0x00 (0000ms, 2324ms total)
T0DC8 002:497 JLINK_WriteReg(R11, 0x00000000)  returns 0x00 (0000ms, 2324ms total)
T0DC8 002:497 JLINK_WriteReg(R12, 0x00000000)  returns 0x00 (0000ms, 2324ms total)
T0DC8 002:497 JLINK_WriteReg(R13, 0x20000800)  returns 0x00 (0000ms, 2324ms total)
T0DC8 002:497 JLINK_WriteReg(R14, 0x20000001)  returns 0x00 (0000ms, 2324ms total)
T0DC8 002:497 JLINK_WriteReg(R15, 0x20000020)  returns 0x00 (0000ms, 2324ms total)
T0DC8 002:497 JLINK_WriteReg(XPSR, 0x01000000)  returns 0x00 (0000ms, 2324ms total)
T0DC8 002:497 JLINK_WriteReg(MSP, 0x20000800)  returns 0x00 (0000ms, 2324ms total)
T0DC8 002:497 JLINK_WriteReg(PSP, 0x20000800)  returns 0x00 (0000ms, 2324ms total)
T0DC8 002:497 JLINK_WriteReg(CFBP, 0x00000000)  returns 0x00 (0000ms, 2324ms total)
T0DC8 002:497 JLINK_SetBPEx(Addr = 0x20000000, Type = 0xFFFFFFF2)  returns 0x00000006 (0000ms, 2324ms total)
T0DC8 002:497 JLINK_Go() -- CPU_WriteMem(4 bytes @ 0xE0002008) -- CPU_WriteMem(4 bytes @ 0xE000200C) -- CPU_WriteMem(4 bytes @ 0xE0002010) -- CPU_WriteMem(4 bytes @ 0xE0002014) -- CPU_WriteMem(4 bytes @ 0xE0002018) -- CPU_WriteMem(4 bytes @ 0xE000201C) >0x2C8 JTAG> >0x1E8 JTAG> >0x1E8 JTAG> >0x1E8 JTAG> >0x1E8 JTAG> >0x218 JTAG> >0x218 JTAG> (0015ms, 2324ms total)
T0DC8 002:512 JLINK_IsHalted() >0x170 JTAG> >0x1598 JTAG> -- CPU_ReadMem(2 bytes @ 0x20000000)  returns TRUE (0008ms, 2339ms total)
T0DC8 002:520 JLINK_ReadReg(R15)  returns 0x20000000 (0000ms, 2339ms total)
T0DC8 002:520 JLINK_ClrBPEx(BPHandle = 0x00000006)  returns 0x00 (0000ms, 2339ms total)
T0DC8 002:520 JLINK_ReadReg(R0)  returns 0x00000001 (0000ms, 2339ms total)
T0DC8 002:520 JLINK_WriteReg(R0, 0x00000800)  returns 0x00 (0000ms, 2339ms total)
T0DC8 002:520 JLINK_WriteReg(R1, 0x00000400)  returns 0x00 (0000ms, 2339ms total)
T0DC8 002:520 JLINK_WriteReg(R2, 0x000000FF)  returns 0x00 (0000ms, 2339ms total)
T0DC8 002:520 JLINK_WriteReg(R3, 0x00000000)  returns 0x00 (0000ms, 2339ms total)
T0DC8 002:520 JLINK_WriteReg(R4, 0x00000000)  returns 0x00 (0000ms, 2339ms total)
T0DC8 002:520 JLINK_WriteReg(R5, 0x00000000)  returns 0x00 (0000ms, 2339ms total)
T0DC8 002:520 JLINK_WriteReg(R6, 0x00000000)  returns 0x00 (0000ms, 2339ms total)
T0DC8 002:520 JLINK_WriteReg(R7, 0x00000000)  returns 0x00 (0000ms, 2339ms total)
T0DC8 002:520 JLINK_WriteReg(R8, 0x00000000)  returns 0x00 (0000ms, 2339ms total)
T0DC8 002:520 JLINK_WriteReg(R9, 0x200000D4)  returns 0x00 (0000ms, 2339ms total)
T0DC8 002:520 JLINK_WriteReg(R10, 0x00000000)  returns 0x00 (0000ms, 2339ms total)
T0DC8 002:520 JLINK_WriteReg(R11, 0x00000000)  returns 0x00 (0000ms, 2339ms total)
T0DC8 002:520 JLINK_WriteReg(R12, 0x00000000)  returns 0x00 (0000ms, 2339ms total)
T0DC8 002:520 JLINK_WriteReg(R13, 0x20000800)  returns 0x00 (0000ms, 2339ms total)
T0DC8 002:520 JLINK_WriteReg(R14, 0x20000001)  returns 0x00 (0000ms, 2339ms total)
T0DC8 002:520 JLINK_WriteReg(R15, 0x20000070)  returns 0x00 (0000ms, 2339ms total)
T0DC8 002:520 JLINK_WriteReg(XPSR, 0x01000000)  returns 0x00 (0000ms, 2339ms total)
T0DC8 002:520 JLINK_WriteReg(MSP, 0x20000800)  returns 0x00 (0000ms, 2339ms total)
T0DC8 002:520 JLINK_WriteReg(PSP, 0x20000800)  returns 0x00 (0000ms, 2339ms total)
T0DC8 002:520 JLINK_WriteReg(CFBP, 0x00000000)  returns 0x00 (0000ms, 2339ms total)
T0DC8 002:520 JLINK_SetBPEx(Addr = 0x20000000, Type = 0xFFFFFFF2)  returns 0x00000007 (0000ms, 2339ms total)
T0DC8 002:520 JLINK_Go() -- CPU_WriteMem(4 bytes @ 0xE0002008) -- CPU_WriteMem(4 bytes @ 0xE000200C) -- CPU_WriteMem(4 bytes @ 0xE0002010) -- CPU_WriteMem(4 bytes @ 0xE0002014) -- CPU_WriteMem(4 bytes @ 0xE0002018) -- CPU_WriteMem(4 bytes @ 0xE000201C) >0x2C8 JTAG> >0x1E8 JTAG> >0x1E8 JTAG> >0x1E8 JTAG> >0x218 JTAG> >0x218 JTAG> (0014ms, 2339ms total)
T0DC8 002:534 JLINK_IsHalted() >0x170 JTAG>  returns FALSE (0002ms, 2353ms total)
T0DC8 002:586 JLINK_IsHalted() >0x170 JTAG> >0x1598 JTAG> -- CPU_ReadMem(2 bytes @ 0x20000000)  returns TRUE (0007ms, 2353ms total)
T0DC8 002:593 JLINK_ReadReg(R15)  returns 0x20000000 (0001ms, 2353ms total)
T0DC8 002:594 JLINK_ClrBPEx(BPHandle = 0x00000007)  returns 0x00 (0000ms, 2354ms total)
T0DC8 002:594 JLINK_ReadReg(R0)  returns 0x00000000 (0000ms, 2354ms total)
T0DC8 002:594 JLINK_WriteReg(R0, 0x00000C00)  returns 0x00 (0000ms, 2354ms total)
T0DC8 002:594 JLINK_WriteReg(R1, 0x00000400)  returns 0x00 (0000ms, 2354ms total)
T0DC8 002:594 JLINK_WriteReg(R2, 0x000000FF)  returns 0x00 (0000ms, 2354ms total)
T0DC8 002:594 JLINK_WriteReg(R3, 0x00000000)  returns 0x00 (0000ms, 2354ms total)
T0DC8 002:594 JLINK_WriteReg(R4, 0x00000000)  returns 0x00 (0000ms, 2354ms total)
T0DC8 002:594 JLINK_WriteReg(R5, 0x00000000)  returns 0x00 (0000ms, 2354ms total)
T0DC8 002:594 JLINK_WriteReg(R6, 0x00000000)  returns 0x00 (0000ms, 2354ms total)
T0DC8 002:594 JLINK_WriteReg(R7, 0x00000000)  returns 0x00 (0000ms, 2354ms total)
T0DC8 002:594 JLINK_WriteReg(R8, 0x00000000)  returns 0x00 (0000ms, 2354ms total)
T0DC8 002:594 JLINK_WriteReg(R9, 0x200000D4)  returns 0x00 (0000ms, 2354ms total)
T0DC8 002:594 JLINK_WriteReg(R10, 0x00000000)  returns 0x00 (0000ms, 2354ms total)
T0DC8 002:594 JLINK_WriteReg(R11, 0x00000000)  returns 0x00 (0000ms, 2354ms total)
T0DC8 002:594 JLINK_WriteReg(R12, 0x00000000)  returns 0x00 (0000ms, 2354ms total)
T0DC8 002:594 JLINK_WriteReg(R13, 0x20000800)  returns 0x00 (0000ms, 2354ms total)
T0DC8 002:594 JLINK_WriteReg(R14, 0x20000001)  returns 0x00 (0000ms, 2354ms total)
T0DC8 002:594 JLINK_WriteReg(R15, 0x20000020)  returns 0x00 (0000ms, 2354ms total)
T0DC8 002:594 JLINK_WriteReg(XPSR, 0x01000000)  returns 0x00 (0000ms, 2354ms total)
T0DC8 002:594 JLINK_WriteReg(MSP, 0x20000800)  returns 0x00 (0000ms, 2354ms total)
T0DC8 002:594 JLINK_WriteReg(PSP, 0x20000800)  returns 0x00 (0000ms, 2354ms total)
T0DC8 002:594 JLINK_WriteReg(CFBP, 0x00000000)  returns 0x00 (0000ms, 2354ms total)
T0DC8 002:594 JLINK_SetBPEx(Addr = 0x20000000, Type = 0xFFFFFFF2)  returns 0x00000008 (0000ms, 2354ms total)
T0DC8 002:595 JLINK_Go() -- CPU_WriteMem(4 bytes @ 0xE0002008) -- CPU_WriteMem(4 bytes @ 0xE000200C) -- CPU_WriteMem(4 bytes @ 0xE0002010) -- CPU_WriteMem(4 bytes @ 0xE0002014) -- CPU_WriteMem(4 bytes @ 0xE0002018) -- CPU_WriteMem(4 bytes @ 0xE000201C) >0x2C8 JTAG> >0x1E8 JTAG> >0x1E8 JTAG> >0x1E8 JTAG> >0x1E8 JTAG> >0x218 JTAG> >0x218 JTAG> (0015ms, 2354ms total)
T0DC8 002:610 JLINK_IsHalted() >0x170 JTAG> >0x1598 JTAG> -- CPU_ReadMem(2 bytes @ 0x20000000)  returns TRUE (0008ms, 2369ms total)
T0DC8 002:618 JLINK_ReadReg(R15)  returns 0x20000000 (0000ms, 2369ms total)
T0DC8 002:618 JLINK_ClrBPEx(BPHandle = 0x00000008)  returns 0x00 (0000ms, 2369ms total)
T0DC8 002:618 JLINK_ReadReg(R0)  returns 0x00000001 (0000ms, 2369ms total)
T0DC8 002:618 JLINK_WriteReg(R0, 0x00000C00)  returns 0x00 (0000ms, 2369ms total)
T0DC8 002:618 JLINK_WriteReg(R1, 0x00000400)  returns 0x00 (0000ms, 2369ms total)
T0DC8 002:618 JLINK_WriteReg(R2, 0x000000FF)  returns 0x00 (0000ms, 2369ms total)
T0DC8 002:618 JLINK_WriteReg(R3, 0x00000000)  returns 0x00 (0000ms, 2369ms total)
T0DC8 002:618 JLINK_WriteReg(R4, 0x00000000)  returns 0x00 (0000ms, 2369ms total)
T0DC8 002:618 JLINK_WriteReg(R5, 0x00000000)  returns 0x00 (0000ms, 2369ms total)
T0DC8 002:618 JLINK_WriteReg(R6, 0x00000000)  returns 0x00 (0000ms, 2369ms total)
T0DC8 002:618 JLINK_WriteReg(R7, 0x00000000)  returns 0x00 (0000ms, 2369ms total)
T0DC8 002:618 JLINK_WriteReg(R8, 0x00000000)  returns 0x00 (0000ms, 2369ms total)
T0DC8 002:618 JLINK_WriteReg(R9, 0x200000D4)  returns 0x00 (0000ms, 2369ms total)
T0DC8 002:618 JLINK_WriteReg(R10, 0x00000000)  returns 0x00 (0000ms, 2369ms total)
T0DC8 002:618 JLINK_WriteReg(R11, 0x00000000)  returns 0x00 (0000ms, 2369ms total)
T0DC8 002:618 JLINK_WriteReg(R12, 0x00000000)  returns 0x00 (0000ms, 2369ms total)
T0DC8 002:618 JLINK_WriteReg(R13, 0x20000800)  returns 0x00 (0000ms, 2369ms total)
T0DC8 002:618 JLINK_WriteReg(R14, 0x20000001)  returns 0x00 (0000ms, 2369ms total)
T0DC8 002:618 JLINK_WriteReg(R15, 0x20000070)  returns 0x00 (0000ms, 2369ms total)
T0DC8 002:618 JLINK_WriteReg(XPSR, 0x01000000)  returns 0x00 (0000ms, 2369ms total)
T0DC8 002:618 JLINK_WriteReg(MSP, 0x20000800)  returns 0x00 (0000ms, 2369ms total)
T0DC8 002:618 JLINK_WriteReg(PSP, 0x20000800)  returns 0x00 (0000ms, 2369ms total)
T0DC8 002:618 JLINK_WriteReg(CFBP, 0x00000000)  returns 0x00 (0000ms, 2369ms total)
T0DC8 002:618 JLINK_SetBPEx(Addr = 0x20000000, Type = 0xFFFFFFF2)  returns 0x00000009 (0000ms, 2369ms total)
T0DC8 002:618 JLINK_Go() -- CPU_WriteMem(4 bytes @ 0xE0002008) -- CPU_WriteMem(4 bytes @ 0xE000200C) -- CPU_WriteMem(4 bytes @ 0xE0002010) -- CPU_WriteMem(4 bytes @ 0xE0002014) -- CPU_WriteMem(4 bytes @ 0xE0002018) -- CPU_WriteMem(4 bytes @ 0xE000201C) >0x2C8 JTAG> >0x1E8 JTAG> >0x1E8 JTAG> >0x1E8 JTAG> >0x218 JTAG> >0x218 JTAG> (0015ms, 2369ms total)
T0DC8 002:633 JLINK_IsHalted() >0x170 JTAG>  returns FALSE (0001ms, 2384ms total)
T0DC8 002:684 JLINK_IsHalted() >0x170 JTAG> >0x1598 JTAG> -- CPU_ReadMem(2 bytes @ 0x20000000)  returns TRUE (0007ms, 2384ms total)
T0DC8 002:691 JLINK_ReadReg(R15)  returns 0x20000000 (0000ms, 2384ms total)
T0DC8 002:691 JLINK_ClrBPEx(BPHandle = 0x00000009)  returns 0x00 (0000ms, 2384ms total)
T0DC8 002:691 JLINK_ReadReg(R0)  returns 0x00000000 (0001ms, 2384ms total)
T0DC8 002:692 JLINK_WriteReg(R0, 0x00001000)  returns 0x00 (0000ms, 2385ms total)
T0DC8 002:692 JLINK_WriteReg(R1, 0x00000400)  returns 0x00 (0000ms, 2385ms total)
T0DC8 002:692 JLINK_WriteReg(R2, 0x000000FF)  returns 0x00 (0000ms, 2385ms total)
T0DC8 002:692 JLINK_WriteReg(R3, 0x00000000)  returns 0x00 (0000ms, 2385ms total)
T0DC8 002:692 JLINK_WriteReg(R4, 0x00000000)  returns 0x00 (0000ms, 2385ms total)
T0DC8 002:692 JLINK_WriteReg(R5, 0x00000000)  returns 0x00 (0000ms, 2385ms total)
T0DC8 002:692 JLINK_WriteReg(R6, 0x00000000)  returns 0x00 (0000ms, 2385ms total)
T0DC8 002:692 JLINK_WriteReg(R7, 0x00000000)  returns 0x00 (0000ms, 2385ms total)
T0DC8 002:692 JLINK_WriteReg(R8, 0x00000000)  returns 0x00 (0000ms, 2385ms total)
T0DC8 002:692 JLINK_WriteReg(R9, 0x200000D4)  returns 0x00 (0000ms, 2385ms total)
T0DC8 002:692 JLINK_WriteReg(R10, 0x00000000)  returns 0x00 (0000ms, 2385ms total)
T0DC8 002:692 JLINK_WriteReg(R11, 0x00000000)  returns 0x00 (0000ms, 2385ms total)
T0DC8 002:692 JLINK_WriteReg(R12, 0x00000000)  returns 0x00 (0000ms, 2385ms total)
T0DC8 002:692 JLINK_WriteReg(R13, 0x20000800)  returns 0x00 (0000ms, 2385ms total)
T0DC8 002:692 JLINK_WriteReg(R14, 0x20000001)  returns 0x00 (0000ms, 2385ms total)
T0DC8 002:692 JLINK_WriteReg(R15, 0x20000020)  returns 0x00 (0000ms, 2385ms total)
T0DC8 002:692 JLINK_WriteReg(XPSR, 0x01000000)  returns 0x00 (0000ms, 2385ms total)
T0DC8 002:692 JLINK_WriteReg(MSP, 0x20000800)  returns 0x00 (0000ms, 2385ms total)
T0DC8 002:692 JLINK_WriteReg(PSP, 0x20000800)  returns 0x00 (0000ms, 2385ms total)
T0DC8 002:692 JLINK_WriteReg(CFBP, 0x00000000)  returns 0x00 (0000ms, 2385ms total)
T0DC8 002:692 JLINK_SetBPEx(Addr = 0x20000000, Type = 0xFFFFFFF2)  returns 0x0000000A (0000ms, 2385ms total)
T0DC8 002:692 JLINK_Go() -- CPU_WriteMem(4 bytes @ 0xE0002008) -- CPU_WriteMem(4 bytes @ 0xE000200C) -- CPU_WriteMem(4 bytes @ 0xE0002010) -- CPU_WriteMem(4 bytes @ 0xE0002014) -- CPU_WriteMem(4 bytes @ 0xE0002018) -- CPU_WriteMem(4 bytes @ 0xE000201C) >0x2C8 JTAG> >0x1E8 JTAG> >0x1E8 JTAG> >0x1E8 JTAG> >0x1E8 JTAG> >0x218 JTAG> >0x218 JTAG> (0016ms, 2385ms total)
T0DC8 002:708 JLINK_IsHalted() >0x170 JTAG> >0x1598 JTAG> -- CPU_ReadMem(2 bytes @ 0x20000000)  returns TRUE (0008ms, 2401ms total)
T0DC8 002:716 JLINK_ReadReg(R15)  returns 0x20000000 (0000ms, 2401ms total)
T0DC8 002:716 JLINK_ClrBPEx(BPHandle = 0x0000000A)  returns 0x00 (0000ms, 2401ms total)
T0DC8 002:716 JLINK_ReadReg(R0)  returns 0x00000001 (0000ms, 2401ms total)
T0DC8 002:716 JLINK_WriteReg(R0, 0x00001000)  returns 0x00 (0000ms, 2401ms total)
T0DC8 002:716 JLINK_WriteReg(R1, 0x00000400)  returns 0x00 (0000ms, 2401ms total)
T0DC8 002:716 JLINK_WriteReg(R2, 0x000000FF)  returns 0x00 (0000ms, 2401ms total)
T0DC8 002:716 JLINK_WriteReg(R3, 0x00000000)  returns 0x00 (0000ms, 2401ms total)
T0DC8 002:716 JLINK_WriteReg(R4, 0x00000000)  returns 0x00 (0000ms, 2401ms total)
T0DC8 002:716 JLINK_WriteReg(R5, 0x00000000)  returns 0x00 (0000ms, 2401ms total)
T0DC8 002:716 JLINK_WriteReg(R6, 0x00000000)  returns 0x00 (0000ms, 2401ms total)
T0DC8 002:716 JLINK_WriteReg(R7, 0x00000000)  returns 0x00 (0000ms, 2401ms total)
T0DC8 002:716 JLINK_WriteReg(R8, 0x00000000)  returns 0x00 (0000ms, 2401ms total)
T0DC8 002:716 JLINK_WriteReg(R9, 0x200000D4)  returns 0x00 (0000ms, 2401ms total)
T0DC8 002:716 JLINK_WriteReg(R10, 0x00000000)  returns 0x00 (0000ms, 2401ms total)
T0DC8 002:716 JLINK_WriteReg(R11, 0x00000000)  returns 0x00 (0000ms, 2401ms total)
T0DC8 002:716 JLINK_WriteReg(R12, 0x00000000)  returns 0x00 (0000ms, 2401ms total)
T0DC8 002:716 JLINK_WriteReg(R13, 0x20000800)  returns 0x00 (0000ms, 2401ms total)
T0DC8 002:716 JLINK_WriteReg(R14, 0x20000001)  returns 0x00 (0000ms, 2401ms total)
T0DC8 002:716 JLINK_WriteReg(R15, 0x20000070)  returns 0x00 (0000ms, 2401ms total)
T0DC8 002:716 JLINK_WriteReg(XPSR, 0x01000000)  returns 0x00 (0000ms, 2401ms total)
T0DC8 002:716 JLINK_WriteReg(MSP, 0x20000800)  returns 0x00 (0000ms, 2401ms total)
T0DC8 002:716 JLINK_WriteReg(PSP, 0x20000800)  returns 0x00 (0000ms, 2401ms total)
T0DC8 002:716 JLINK_WriteReg(CFBP, 0x00000000)  returns 0x00 (0000ms, 2401ms total)
T0DC8 002:716 JLINK_SetBPEx(Addr = 0x20000000, Type = 0xFFFFFFF2)  returns 0x0000000B (0000ms, 2401ms total)
T0DC8 002:716 JLINK_Go() -- CPU_WriteMem(4 bytes @ 0xE0002008) -- CPU_WriteMem(4 bytes @ 0xE000200C) -- CPU_WriteMem(4 bytes @ 0xE0002010) -- CPU_WriteMem(4 bytes @ 0xE0002014) -- CPU_WriteMem(4 bytes @ 0xE0002018) -- CPU_WriteMem(4 bytes @ 0xE000201C) >0x2C8 JTAG> >0x1E8 JTAG> >0x1E8 JTAG> >0x1E8 JTAG> >0x218 JTAG> >0x218 JTAG> (0015ms, 2401ms total)
T0DC8 002:731 JLINK_IsHalted() >0x170 JTAG>  returns FALSE (0001ms, 2416ms total)
T0DC8 002:782 JLINK_IsHalted() >0x170 JTAG> >0x1598 JTAG> -- CPU_ReadMem(2 bytes @ 0x20000000)  returns TRUE (0007ms, 2416ms total)
T0DC8 002:789 JLINK_ReadReg(R15)  returns 0x20000000 (0000ms, 2416ms total)
T0DC8 002:789 JLINK_ClrBPEx(BPHandle = 0x0000000B)  returns 0x00 (0000ms, 2416ms total)
T0DC8 002:789 JLINK_ReadReg(R0)  returns 0x00000000 (0000ms, 2416ms total)
T0DC8 002:790 JLINK_WriteReg(R0, 0x00001400)  returns 0x00 (0000ms, 2416ms total)
T0DC8 002:790 JLINK_WriteReg(R1, 0x00000400)  returns 0x00 (0000ms, 2416ms total)
T0DC8 002:790 JLINK_WriteReg(R2, 0x000000FF)  returns 0x00 (0000ms, 2416ms total)
T0DC8 002:790 JLINK_WriteReg(R3, 0x00000000)  returns 0x00 (0000ms, 2416ms total)
T0DC8 002:790 JLINK_WriteReg(R4, 0x00000000)  returns 0x00 (0000ms, 2416ms total)
T0DC8 002:790 JLINK_WriteReg(R5, 0x00000000)  returns 0x00 (0000ms, 2416ms total)
T0DC8 002:790 JLINK_WriteReg(R6, 0x00000000)  returns 0x00 (0000ms, 2416ms total)
T0DC8 002:790 JLINK_WriteReg(R7, 0x00000000)  returns 0x00 (0000ms, 2416ms total)
T0DC8 002:790 JLINK_WriteReg(R8, 0x00000000)  returns 0x00 (0000ms, 2416ms total)
T0DC8 002:790 JLINK_WriteReg(R9, 0x200000D4)  returns 0x00 (0000ms, 2416ms total)
T0DC8 002:790 JLINK_WriteReg(R10, 0x00000000)  returns 0x00 (0000ms, 2416ms total)
T0DC8 002:790 JLINK_WriteReg(R11, 0x00000000)  returns 0x00 (0000ms, 2416ms total)
T0DC8 002:790 JLINK_WriteReg(R12, 0x00000000)  returns 0x00 (0000ms, 2416ms total)
T0DC8 002:790 JLINK_WriteReg(R13, 0x20000800)  returns 0x00 (0000ms, 2416ms total)
T0DC8 002:790 JLINK_WriteReg(R14, 0x20000001)  returns 0x00 (0000ms, 2416ms total)
T0DC8 002:790 JLINK_WriteReg(R15, 0x20000020)  returns 0x00 (0000ms, 2416ms total)
T0DC8 002:790 JLINK_WriteReg(XPSR, 0x01000000)  returns 0x00 (0000ms, 2416ms total)
T0DC8 002:790 JLINK_WriteReg(MSP, 0x20000800)  returns 0x00 (0000ms, 2416ms total)
T0DC8 002:790 JLINK_WriteReg(PSP, 0x20000800)  returns 0x00 (0000ms, 2416ms total)
T0DC8 002:790 JLINK_WriteReg(CFBP, 0x00000000)  returns 0x00 (0000ms, 2416ms total)
T0DC8 002:790 JLINK_SetBPEx(Addr = 0x20000000, Type = 0xFFFFFFF2)  returns 0x0000000C (0000ms, 2416ms total)
T0DC8 002:790 JLINK_Go() -- CPU_WriteMem(4 bytes @ 0xE0002008) -- CPU_WriteMem(4 bytes @ 0xE000200C) -- CPU_WriteMem(4 bytes @ 0xE0002010) -- CPU_WriteMem(4 bytes @ 0xE0002014) -- CPU_WriteMem(4 bytes @ 0xE0002018) -- CPU_WriteMem(4 bytes @ 0xE000201C) >0x2C8 JTAG> >0x1E8 JTAG> >0x1E8 JTAG> >0x1E8 JTAG> >0x1E8 JTAG> >0x218 JTAG> >0x218 JTAG> (0016ms, 2416ms total)
T0DC8 002:806 JLINK_IsHalted() >0x170 JTAG> >0x1598 JTAG> -- CPU_ReadMem(2 bytes @ 0x20000000)  returns TRUE (0008ms, 2432ms total)
T0DC8 002:814 JLINK_ReadReg(R15)  returns 0x20000000 (0000ms, 2432ms total)
T0DC8 002:814 JLINK_ClrBPEx(BPHandle = 0x0000000C)  returns 0x00 (0000ms, 2432ms total)
T0DC8 002:814 JLINK_ReadReg(R0)  returns 0x00000001 (0000ms, 2432ms total)
T0DC8 002:814 JLINK_WriteReg(R0, 0x00001400)  returns 0x00 (0000ms, 2432ms total)
T0DC8 002:814 JLINK_WriteReg(R1, 0x00000400)  returns 0x00 (0000ms, 2432ms total)
T0DC8 002:814 JLINK_WriteReg(R2, 0x000000FF)  returns 0x00 (0000ms, 2432ms total)
T0DC8 002:814 JLINK_WriteReg(R3, 0x00000000)  returns 0x00 (0000ms, 2432ms total)
T0DC8 002:814 JLINK_WriteReg(R4, 0x00000000)  returns 0x00 (0000ms, 2432ms total)
T0DC8 002:814 JLINK_WriteReg(R5, 0x00000000)  returns 0x00 (0000ms, 2432ms total)
T0DC8 002:814 JLINK_WriteReg(R6, 0x00000000)  returns 0x00 (0000ms, 2432ms total)
T0DC8 002:814 JLINK_WriteReg(R7, 0x00000000)  returns 0x00 (0000ms, 2432ms total)
T0DC8 002:814 JLINK_WriteReg(R8, 0x00000000)  returns 0x00 (0000ms, 2432ms total)
T0DC8 002:814 JLINK_WriteReg(R9, 0x200000D4)  returns 0x00 (0000ms, 2432ms total)
T0DC8 002:814 JLINK_WriteReg(R10, 0x00000000)  returns 0x00 (0000ms, 2432ms total)
T0DC8 002:814 JLINK_WriteReg(R11, 0x00000000)  returns 0x00 (0000ms, 2432ms total)
T0DC8 002:814 JLINK_WriteReg(R12, 0x00000000)  returns 0x00 (0000ms, 2432ms total)
T0DC8 002:814 JLINK_WriteReg(R13, 0x20000800)  returns 0x00 (0000ms, 2432ms total)
T0DC8 002:814 JLINK_WriteReg(R14, 0x20000001)  returns 0x00 (0000ms, 2432ms total)
T0DC8 002:814 JLINK_WriteReg(R15, 0x20000070)  returns 0x00 (0000ms, 2432ms total)
T0DC8 002:814 JLINK_WriteReg(XPSR, 0x01000000)  returns 0x00 (0000ms, 2432ms total)
T0DC8 002:814 JLINK_WriteReg(MSP, 0x20000800)  returns 0x00 (0000ms, 2432ms total)
T0DC8 002:814 JLINK_WriteReg(PSP, 0x20000800)  returns 0x00 (0000ms, 2432ms total)
T0DC8 002:814 JLINK_WriteReg(CFBP, 0x00000000)  returns 0x00 (0000ms, 2432ms total)
T0DC8 002:814 JLINK_SetBPEx(Addr = 0x20000000, Type = 0xFFFFFFF2)  returns 0x0000000D (0000ms, 2432ms total)
T0DC8 002:814 JLINK_Go() -- CPU_WriteMem(4 bytes @ 0xE0002008) -- CPU_WriteMem(4 bytes @ 0xE000200C) -- CPU_WriteMem(4 bytes @ 0xE0002010) -- CPU_WriteMem(4 bytes @ 0xE0002014) -- CPU_WriteMem(4 bytes @ 0xE0002018) -- CPU_WriteMem(4 bytes @ 0xE000201C) >0x2C8 JTAG> >0x1E8 JTAG> >0x1E8 JTAG> >0x1E8 JTAG> >0x218 JTAG> >0x218 JTAG> (0015ms, 2432ms total)
T0DC8 002:829 JLINK_IsHalted() >0x170 JTAG>  returns FALSE (0001ms, 2447ms total)
T0DC8 002:880 JLINK_IsHalted() >0x170 JTAG> >0x1598 JTAG> -- CPU_ReadMem(2 bytes @ 0x20000000)  returns TRUE (0008ms, 2447ms total)
T0DC8 002:888 JLINK_ReadReg(R15)  returns 0x20000000 (0000ms, 2447ms total)
T0DC8 002:888 JLINK_ClrBPEx(BPHandle = 0x0000000D)  returns 0x00 (0000ms, 2447ms total)
T0DC8 002:888 JLINK_ReadReg(R0)  returns 0x00000000 (0000ms, 2447ms total)
T0DC8 002:888 JLINK_WriteReg(R0, 0x00001800)  returns 0x00 (0000ms, 2447ms total)
T0DC8 002:888 JLINK_WriteReg(R1, 0x00000400)  returns 0x00 (0000ms, 2447ms total)
T0DC8 002:888 JLINK_WriteReg(R2, 0x000000FF)  returns 0x00 (0000ms, 2447ms total)
T0DC8 002:888 JLINK_WriteReg(R3, 0x00000000)  returns 0x00 (0000ms, 2447ms total)
T0DC8 002:888 JLINK_WriteReg(R4, 0x00000000)  returns 0x00 (0000ms, 2447ms total)
T0DC8 002:888 JLINK_WriteReg(R5, 0x00000000)  returns 0x00 (0000ms, 2447ms total)
T0DC8 002:888 JLINK_WriteReg(R6, 0x00000000)  returns 0x00 (0000ms, 2447ms total)
T0DC8 002:888 JLINK_WriteReg(R7, 0x00000000)  returns 0x00 (0000ms, 2447ms total)
T0DC8 002:888 JLINK_WriteReg(R8, 0x00000000)  returns 0x00 (0000ms, 2447ms total)
T0DC8 002:888 JLINK_WriteReg(R9, 0x200000D4)  returns 0x00 (0000ms, 2447ms total)
T0DC8 002:888 JLINK_WriteReg(R10, 0x00000000)  returns 0x00 (0000ms, 2447ms total)
T0DC8 002:888 JLINK_WriteReg(R11, 0x00000000)  returns 0x00 (0000ms, 2447ms total)
T0DC8 002:888 JLINK_WriteReg(R12, 0x00000000)  returns 0x00 (0000ms, 2447ms total)
T0DC8 002:888 JLINK_WriteReg(R13, 0x20000800)  returns 0x00 (0000ms, 2447ms total)
T0DC8 002:888 JLINK_WriteReg(R14, 0x20000001)  returns 0x00 (0001ms, 2447ms total)
T0DC8 002:889 JLINK_WriteReg(R15, 0x20000020)  returns 0x00 (0000ms, 2448ms total)
T0DC8 002:889 JLINK_WriteReg(XPSR, 0x01000000)  returns 0x00 (0000ms, 2448ms total)
T0DC8 002:889 JLINK_WriteReg(MSP, 0x20000800)  returns 0x00 (0000ms, 2448ms total)
T0DC8 002:889 JLINK_WriteReg(PSP, 0x20000800)  returns 0x00 (0000ms, 2448ms total)
T0DC8 002:889 JLINK_WriteReg(CFBP, 0x00000000)  returns 0x00 (0000ms, 2448ms total)
T0DC8 002:889 JLINK_SetBPEx(Addr = 0x20000000, Type = 0xFFFFFFF2)  returns 0x0000000E (0000ms, 2448ms total)
T0DC8 002:889 JLINK_Go() -- CPU_WriteMem(4 bytes @ 0xE0002008) -- CPU_WriteMem(4 bytes @ 0xE000200C) -- CPU_WriteMem(4 bytes @ 0xE0002010) -- CPU_WriteMem(4 bytes @ 0xE0002014) -- CPU_WriteMem(4 bytes @ 0xE0002018) -- CPU_WriteMem(4 bytes @ 0xE000201C) >0x2C8 JTAG> >0x1E8 JTAG> >0x1E8 JTAG> >0x1E8 JTAG> >0x1E8 JTAG> >0x218 JTAG> >0x218 JTAG> (0015ms, 2448ms total)
T0DC8 002:904 JLINK_IsHalted() >0x170 JTAG> >0x1598 JTAG> -- CPU_ReadMem(2 bytes @ 0x20000000)  returns TRUE (0008ms, 2463ms total)
T0DC8 002:912 JLINK_ReadReg(R15)  returns 0x20000000 (0000ms, 2463ms total)
T0DC8 002:912 JLINK_ClrBPEx(BPHandle = 0x0000000E)  returns 0x00 (0000ms, 2463ms total)
T0DC8 002:912 JLINK_ReadReg(R0)  returns 0x00000001 (0000ms, 2463ms total)
T0DC8 002:912 JLINK_WriteReg(R0, 0x00001800)  returns 0x00 (0000ms, 2463ms total)
T0DC8 002:912 JLINK_WriteReg(R1, 0x00000400)  returns 0x00 (0000ms, 2463ms total)
T0DC8 002:912 JLINK_WriteReg(R2, 0x000000FF)  returns 0x00 (0000ms, 2463ms total)
T0DC8 002:912 JLINK_WriteReg(R3, 0x00000000)  returns 0x00 (0000ms, 2463ms total)
T0DC8 002:912 JLINK_WriteReg(R4, 0x00000000)  returns 0x00 (0000ms, 2463ms total)
T0DC8 002:913 JLINK_WriteReg(R5, 0x00000000)  returns 0x00 (0000ms, 2464ms total)
T0DC8 002:913 JLINK_WriteReg(R6, 0x00000000)  returns 0x00 (0000ms, 2464ms total)
T0DC8 002:913 JLINK_WriteReg(R7, 0x00000000)  returns 0x00 (0000ms, 2464ms total)
T0DC8 002:913 JLINK_WriteReg(R8, 0x00000000)  returns 0x00 (0000ms, 2464ms total)
T0DC8 002:913 JLINK_WriteReg(R9, 0x200000D4)  returns 0x00 (0000ms, 2464ms total)
T0DC8 002:913 JLINK_WriteReg(R10, 0x00000000)  returns 0x00 (0000ms, 2464ms total)
T0DC8 002:913 JLINK_WriteReg(R11, 0x00000000)  returns 0x00 (0000ms, 2464ms total)
T0DC8 002:913 JLINK_WriteReg(R12, 0x00000000)  returns 0x00 (0000ms, 2464ms total)
T0DC8 002:913 JLINK_WriteReg(R13, 0x20000800)  returns 0x00 (0000ms, 2464ms total)
T0DC8 002:913 JLINK_WriteReg(R14, 0x20000001)  returns 0x00 (0000ms, 2464ms total)
T0DC8 002:913 JLINK_WriteReg(R15, 0x20000070)  returns 0x00 (0000ms, 2464ms total)
T0DC8 002:913 JLINK_WriteReg(XPSR, 0x01000000)  returns 0x00 (0000ms, 2464ms total)
T0DC8 002:913 JLINK_WriteReg(MSP, 0x20000800)  returns 0x00 (0000ms, 2464ms total)
T0DC8 002:913 JLINK_WriteReg(PSP, 0x20000800)  returns 0x00 (0000ms, 2464ms total)
T0DC8 002:913 JLINK_WriteReg(CFBP, 0x00000000)  returns 0x00 (0000ms, 2464ms total)
T0DC8 002:913 JLINK_SetBPEx(Addr = 0x20000000, Type = 0xFFFFFFF2)  returns 0x0000000F (0000ms, 2464ms total)
T0DC8 002:913 JLINK_Go() -- CPU_WriteMem(4 bytes @ 0xE0002008) -- CPU_WriteMem(4 bytes @ 0xE000200C) -- CPU_WriteMem(4 bytes @ 0xE0002010) -- CPU_WriteMem(4 bytes @ 0xE0002014) -- CPU_WriteMem(4 bytes @ 0xE0002018) -- CPU_WriteMem(4 bytes @ 0xE000201C) >0x2C8 JTAG> >0x1E8 JTAG> >0x1E8 JTAG> >0x218 JTAG> >0x218 JTAG> (0012ms, 2464ms total)
T0DC8 002:925 JLINK_IsHalted() >0x170 JTAG>  returns FALSE (0002ms, 2476ms total)
T0DC8 002:977 JLINK_IsHalted() >0x170 JTAG> >0x1598 JTAG> -- CPU_ReadMem(2 bytes @ 0x20000000)  returns TRUE (0008ms, 2476ms total)
T0DC8 002:985 JLINK_ReadReg(R15)  returns 0x20000000 (0000ms, 2476ms total)
T0DC8 002:985 JLINK_ClrBPEx(BPHandle = 0x0000000F)  returns 0x00 (0000ms, 2476ms total)
T0DC8 002:985 JLINK_ReadReg(R0)  returns 0x00000000 (0000ms, 2476ms total)
T0DC8 002:985 JLINK_WriteReg(R0, 0x00001C00)  returns 0x00 (0000ms, 2476ms total)
T0DC8 002:985 JLINK_WriteReg(R1, 0x00000400)  returns 0x00 (0000ms, 2476ms total)
T0DC8 002:985 JLINK_WriteReg(R2, 0x000000FF)  returns 0x00 (0000ms, 2476ms total)
T0DC8 002:985 JLINK_WriteReg(R3, 0x00000000)  returns 0x00 (0000ms, 2476ms total)
T0DC8 002:985 JLINK_WriteReg(R4, 0x00000000)  returns 0x00 (0000ms, 2476ms total)
T0DC8 002:985 JLINK_WriteReg(R5, 0x00000000)  returns 0x00 (0000ms, 2476ms total)
T0DC8 002:985 JLINK_WriteReg(R6, 0x00000000)  returns 0x00 (0000ms, 2476ms total)
T0DC8 002:985 JLINK_WriteReg(R7, 0x00000000)  returns 0x00 (0000ms, 2476ms total)
T0DC8 002:985 JLINK_WriteReg(R8, 0x00000000)  returns 0x00 (0000ms, 2476ms total)
T0DC8 002:985 JLINK_WriteReg(R9, 0x200000D4)  returns 0x00 (0000ms, 2476ms total)
T0DC8 002:985 JLINK_WriteReg(R10, 0x00000000)  returns 0x00 (0000ms, 2476ms total)
T0DC8 002:985 JLINK_WriteReg(R11, 0x00000000)  returns 0x00 (0001ms, 2476ms total)
T0DC8 002:986 JLINK_WriteReg(R12, 0x00000000)  returns 0x00 (0000ms, 2477ms total)
T0DC8 002:986 JLINK_WriteReg(R13, 0x20000800)  returns 0x00 (0000ms, 2477ms total)
T0DC8 002:986 JLINK_WriteReg(R14, 0x20000001)  returns 0x00 (0000ms, 2477ms total)
T0DC8 002:986 JLINK_WriteReg(R15, 0x20000020)  returns 0x00 (0000ms, 2477ms total)
T0DC8 002:986 JLINK_WriteReg(XPSR, 0x01000000)  returns 0x00 (0000ms, 2477ms total)
T0DC8 002:986 JLINK_WriteReg(MSP, 0x20000800)  returns 0x00 (0000ms, 2477ms total)
T0DC8 002:986 JLINK_WriteReg(PSP, 0x20000800)  returns 0x00 (0000ms, 2477ms total)
T0DC8 002:986 JLINK_WriteReg(CFBP, 0x00000000)  returns 0x00 (0000ms, 2477ms total)
T0DC8 002:986 JLINK_SetBPEx(Addr = 0x20000000, Type = 0xFFFFFFF2)  returns 0x00000010 (0000ms, 2477ms total)
T0DC8 002:986 JLINK_Go() -- CPU_WriteMem(4 bytes @ 0xE0002008) -- CPU_WriteMem(4 bytes @ 0xE000200C) -- CPU_WriteMem(4 bytes @ 0xE0002010) -- CPU_WriteMem(4 bytes @ 0xE0002014) -- CPU_WriteMem(4 bytes @ 0xE0002018) -- CPU_WriteMem(4 bytes @ 0xE000201C) >0x2C8 JTAG> >0x1E8 JTAG> >0x1E8 JTAG> >0x1E8 JTAG> >0x1E8 JTAG> >0x218 JTAG> >0x218 JTAG> (0015ms, 2477ms total)
T0DC8 003:001 JLINK_IsHalted() >0x170 JTAG> >0x1598 JTAG> -- CPU_ReadMem(2 bytes @ 0x20000000)  returns TRUE (0008ms, 2492ms total)
T0DC8 003:009 JLINK_ReadReg(R15)  returns 0x20000000 (0000ms, 2492ms total)
T0DC8 003:009 JLINK_ClrBPEx(BPHandle = 0x00000010)  returns 0x00 (0000ms, 2492ms total)
T0DC8 003:009 JLINK_ReadReg(R0)  returns 0x00000001 (0000ms, 2492ms total)
T0DC8 003:009 JLINK_WriteReg(R0, 0x00001C00)  returns 0x00 (0000ms, 2492ms total)
T0DC8 003:009 JLINK_WriteReg(R1, 0x00000400)  returns 0x00 (0000ms, 2492ms total)
T0DC8 003:009 JLINK_WriteReg(R2, 0x000000FF)  returns 0x00 (0000ms, 2492ms total)
T0DC8 003:009 JLINK_WriteReg(R3, 0x00000000)  returns 0x00 (0000ms, 2492ms total)
T0DC8 003:009 JLINK_WriteReg(R4, 0x00000000)  returns 0x00 (0000ms, 2492ms total)
T0DC8 003:009 JLINK_WriteReg(R5, 0x00000000)  returns 0x00 (0000ms, 2492ms total)
T0DC8 003:009 JLINK_WriteReg(R6, 0x00000000)  returns 0x00 (0000ms, 2492ms total)
T0DC8 003:009 JLINK_WriteReg(R7, 0x00000000)  returns 0x00 (0000ms, 2492ms total)
T0DC8 003:009 JLINK_WriteReg(R8, 0x00000000)  returns 0x00 (0000ms, 2492ms total)
T0DC8 003:009 JLINK_WriteReg(R9, 0x200000D4)  returns 0x00 (0000ms, 2492ms total)
T0DC8 003:009 JLINK_WriteReg(R10, 0x00000000)  returns 0x00 (0000ms, 2492ms total)
T0DC8 003:009 JLINK_WriteReg(R11, 0x00000000)  returns 0x00 (0000ms, 2492ms total)
T0DC8 003:009 JLINK_WriteReg(R12, 0x00000000)  returns 0x00 (0000ms, 2492ms total)
T0DC8 003:009 JLINK_WriteReg(R13, 0x20000800)  returns 0x00 (0000ms, 2492ms total)
T0DC8 003:009 JLINK_WriteReg(R14, 0x20000001)  returns 0x00 (0000ms, 2492ms total)
T0DC8 003:009 JLINK_WriteReg(R15, 0x20000070)  returns 0x00 (0000ms, 2492ms total)
T0DC8 003:009 JLINK_WriteReg(XPSR, 0x01000000)  returns 0x00 (0000ms, 2492ms total)
T0DC8 003:009 JLINK_WriteReg(MSP, 0x20000800)  returns 0x00 (0000ms, 2492ms total)
T0DC8 003:009 JLINK_WriteReg(PSP, 0x20000800)  returns 0x00 (0000ms, 2492ms total)
T0DC8 003:009 JLINK_WriteReg(CFBP, 0x00000000)  returns 0x00 (0000ms, 2492ms total)
T0DC8 003:009 JLINK_SetBPEx(Addr = 0x20000000, Type = 0xFFFFFFF2)  returns 0x00000011 (0000ms, 2492ms total)
T0DC8 003:009 JLINK_Go() -- CPU_WriteMem(4 bytes @ 0xE0002008) -- CPU_WriteMem(4 bytes @ 0xE000200C) -- CPU_WriteMem(4 bytes @ 0xE0002010) -- CPU_WriteMem(4 bytes @ 0xE0002014) -- CPU_WriteMem(4 bytes @ 0xE0002018) -- CPU_WriteMem(4 bytes @ 0xE000201C) >0x2C8 JTAG> >0x1E8 JTAG> >0x1E8 JTAG> >0x1E8 JTAG> >0x218 JTAG> >0x218 JTAG> (0014ms, 2492ms total)
T0DC8 003:023 JLINK_IsHalted() >0x170 JTAG>  returns FALSE (0001ms, 2506ms total)
T0DC8 003:074 JLINK_IsHalted() >0x170 JTAG> >0x1598 JTAG> -- CPU_ReadMem(2 bytes @ 0x20000000)  returns TRUE (0008ms, 2506ms total)
T0DC8 003:082 JLINK_ReadReg(R15)  returns 0x20000000 (0000ms, 2506ms total)
